https://item.taobao.com/item.htm?id=520272466750&_u=626s1740c57
https://item.taobao.com/item.htm?id=551303715069&_u=626s1743b81




操作DO  打开第2个继电器 
发送:10 05 00 01 FF 00 DE BB 
接收:10 05 00 01 FF 00 DE BB 
操作DO  关闭第1个继电器 
发送:10 05 00 00 00 00 CE 8B 
接收:10 05 00 00 00 00 CE 8B 
读取DO
发送:10 01 00 00 00 10 3E 87 
接收:10 01 02 0A 00 43 5F 
操作DO  打开第1个继电器 
发送:10 05 00 00 FF 00 8F 7B 
接收:10 05 00 00 FF 00 8F 7B 
操作DO  关闭第2个继电器 
发送:10 05 00 01 00 00 9F 4B 
接收:10 05 00 01 00 00 9F 4B 
读取DO
发送:10 01 00 00 00 10 3E 87 
接收:10 01 02 09 00 43 AF 
读取DO
发送:10 01 00 00 00 10 3E 87 
接收:10 01 02 09 00 43 AF 
操作DO  关闭第1个继电器 
发送:10 05 00 00 00 00 CE 8B 
接收:10 05 00 00 00 00 CE 8B 
操作DO  打开第2个继电器 
发送:10 05 00 01 FF 00 DE BB 
接收:10 05 00 01 FF 00 DE BB 
读取DO
发送:10 01 00 00 00 10 3E 87 
接收:10 01 02 0A 00 43 5F 
操作DO  打开第1个继电器 
发送:10 05 00 00 FF 00 8F 7B 
接收:10 05 00 00 FF 00 8F 7B 
操作DO  关闭第2个继电器 
发送:10 05 00 01 00 00 9F 4B 
接收:10 05 00 01 00 00 9F 4B 
操作DO  打开第3个继电器 
发送:10 05 00 02 FF 00 2E BB 
接收:10 05 00 02 FF 00 2E BB 
操作DO  关闭第4个继电器 
发送:10 05 00 03 00 00 3E 8B 
接收:10 05 00 03 00 00 3E 8B 
操作DO  打开第4个继电器 
发送:10 05 00 03 FF 00 7F 7B 
接收:10 05 00 03 FF 00 7F 7B 
操作DO  关闭第3个继电器 
发送:10 05 00 02 00 00 6F 4B 
接收:10 05 00 02 00 00 6F 4B 
操作DO  打开第2个继电器 
发送:10 05 00 01 FF 00 DE BB 
接收:10 05 00 01 FF 00 DE BB 
操作DO  关闭第1个继电器 
发送:10 05 00 00 00 00 CE 8B 
接收:10 05 00 00 00 00 CE 8B 
读取DO
发送:10 01 00 00 00 10 3E 87 
接收:10 01 02 0A 00 43 5F 
操作DO  关闭第2个继电器 
发送:10 05 00 01 00 00 9F 4B 
接收:10 05 00 01 00 00 9F 4B 
操作DO  打开第1个继电器 
发送:10 05 00 00 FF 00 8F 7B 
接收:10 05 00 00 FF 00 8F 7B 
读取DO
发送:10 01 00 00 00 10 3E 87 
接收:10 01 02 09 00 43 AF 
读取DO
发送:10 01 00 00 00 10 3E 87 
接收:10 01 02 09 00 43 AF 
读取DO
发送:10 01 00 00 00 10 3E 87 
接收:10 01 02 09 00 43 AF 
读取DO
发送:10 01 00 00 00 10 3E 87 
接收:10 01 02 09 00 43 AF 
读取DO
发送:10 01 00 00 00 10 3E 87 
接收:10 01 02 09 00 43 AF 
读取DO
发送:10 01 00 00 00 10 3E 87 
接收:10 01 02 09 00 43 AF 
读取DO
接收:10 01 02 09 00 43 AF 
读取DO
发送:10 01 00 00 00 10 3E 87 
接收:10 01 02 09 00 43 AF 
读取DO
发送:10 01 00 00 00 10 3E 87 
接收:10 01 02 09 00 43 AF 



1A 17 12 13 23 FF 60 01 FF 60 01 0F